T1ECC 3136:223.289   SEGGER J-Link V6.62b Log File
T1ECC 3136:223.377   DLL Compiled: Feb 17 2020 18:41:45
T1ECC 3136:223.387   Logging started @ 2020-04-08 11:28
T1ECC 3136:223.401 JLINK_SetWarnOutHandler(...)
T1ECC 3136:223.410 - 0.012ms
T1ECC 3136:223.420 JLINK_OpenEx(...)
T1ECC 3136:225.512   Firmware: J-Link ARM-OB STM32 compiled Aug 22 2012 19:52:04
T1ECC 3136:229.404   Hardware: V7.00
T1ECC 3136:229.432   S/N: 20090928
T1ECC 3136:229.446   OEM: SEGGER
T1ECC 3136:229.457   Feature(s): RDI,FlashDL,FlashBP,JFlash,GDB
T1ECC 3136:231.260   TELNET listener socket opened on port 19021
T1ECC 3136:235.489   WEBSRV Starting webserver
T1ECC 3136:235.702   WEBSRV Webserver running on local port 19080
T1ECC 3136:235.716 - 12.300ms returns "O.K."
T1ECC 3136:235.743 JLINK_GetEmuCaps()
T1ECC 3136:235.755 - 0.015ms returns 0x88EA5833
T1ECC 3136:235.774 JLINK_TIF_GetAvailable(...)
T1ECC 3136:236.290 - 0.529ms
T1ECC 3136:236.323 JLINK_SetErrorOutHandler(...)
T1ECC 3136:236.331 - 0.013ms
T1ECC 3136:237.013 JLINK_ExecCommand("ProjectFile = "E:\github_ide\SEASKY_DIYer\11.0 OLED\stm32f407zgt6_demo\MDK-ARM\JLinkSettings.ini"", ...). 
T1ECC 3136:241.601 - 4.604ms returns 0x00
T1ECC 3136:254.267 JLINK_ExecCommand("Device = STM32F407ZGTx", ...). 
T1ECC 3136:260.230   Device "STM32F407ZG" selected.
T1ECC 3136:262.297 - 8.019ms returns 0x00
T1ECC 3136:262.333 JLINK_ExecCommand("DisableConnectionTimeout", ...). 
T1ECC 3136:262.353 - 0.009ms returns 0x01
T1ECC 3136:262.455 JLINK_GetHardwareVersion()
T1ECC 3136:262.466 - 0.014ms returns 0x11170
T1ECC 3136:262.479 JLINK_GetDLLVersion()  returns 66202
T1ECC 3136:262.495 JLINK_GetFirmwareString(...)
T1ECC 3136:262.503 - 0.011ms
T1ECC 3136:277.626 JLINK_GetDLLVersion()  returns 66202
T1ECC 3136:277.656 JLINK_GetCompileDateTime()
T1ECC 3136:277.665 - 0.013ms
T1ECC 3136:282.379 JLINK_GetFirmwareString(...)
T1ECC 3136:282.402 - 0.027ms
T1ECC 3136:286.448 JLINK_GetHardwareVersion()
T1ECC 3136:286.472 - 0.029ms returns 0x11170
T1ECC 3136:303.258 JLINK_TIF_Select(JLINKARM_TIF_SWD)
T1ECC 3136:304.527 - 1.285ms returns 0x00
T1ECC 3136:304.566 JLINK_SetSpeed(5000)
T1ECC 3136:304.923 - 0.377ms
T1ECC 3136:304.978 JLINK_GetId()
T1ECC 3136:310.924   Found SW-DP with ID 0x2BA01477
T1ECC 3136:339.482   Found SW-DP with ID 0x2BA01477
T1ECC 3136:346.254   Old FW that does not support reading DPIDR via DAP jobs
T1ECC 3136:359.091   Unknown DP version. Assuming DPv0
T1ECC 3136:363.058   Scanning AP map to find all available APs
T1ECC 3136:373.508   AP[1]: Stopped AP scan as end of AP map has been reached
T1ECC 3136:377.856   AP[0]: AHB-AP (IDR: 0x24770011)
T1ECC 3136:382.387   Iterating through AP map to find AHB-AP to use
T1ECC 3136:395.327   AP[0]: Core found
T1ECC 3136:400.352   AP[0]: AHB-AP ROM base: 0xE00FF000
T1ECC 3136:410.059   CPUID register: 0x410FC241. Implementer code: 0x41 (ARM)
T1ECC 3136:413.871   Found Cortex-M4 r0p1, Little endian.
T1ECC 3136:516.077    -- Max. mem block: 0x00002C18
T1ECC 3136:516.114    -- CPU_ReadMem(4 bytes @ 0xE000EDF0)
T1ECC 3136:517.343    -- CPU_WriteMem(4 bytes @ 0xE000EDF0)
T1ECC 3136:518.163    -- CPU_ReadMem(4 bytes @ 0xE0002000)
T1ECC 3136:523.580   FPUnit: 6 code (BP) slots and 2 literal slots
T1ECC 3136:523.620    -- CPU_ReadMem(4 bytes @ 0xE000EDFC)
T1ECC 3136:524.502    -- CPU_WriteMem(4 bytes @ 0xE000EDFC)
T1ECC 3136:525.271    -- CPU_ReadMem(4 bytes @ 0xE0001000)
T1ECC 3136:526.068    -- CPU_WriteMem(4 bytes @ 0xE0001000)
T1ECC 3136:526.752    -- CPU_ReadMem(4 bytes @ 0xE000ED88)
T1ECC 3136:527.529    -- CPU_WriteMem(4 bytes @ 0xE000ED88)
T1ECC 3136:528.409    -- CPU_ReadMem(4 bytes @ 0xE000ED88)
T1ECC 3136:529.225    -- CPU_WriteMem(4 bytes @ 0xE000ED88)
T1ECC 3136:534.813   CoreSight components:
T1ECC 3136:539.708   ROMTbl[0] @ E00FF000
T1ECC 3136:539.758    -- CPU_ReadMem(64 bytes @ 0xE00FF000)
T1ECC 3136:541.104    -- CPU_ReadMem(32 bytes @ 0xE000EFE0)
T1ECC 3136:546.935   ROMTbl[0][0]: E000E000, CID: B105E00D, PID: 000BB00C SCS-M7
T1ECC 3136:546.980    -- CPU_ReadMem(32 bytes @ 0xE0001FE0)
T1ECC 3136:553.092   ROMTbl[0][1]: E0001000, CID: B105E00D, PID: 003BB002 DWT
T1ECC 3136:553.128    -- CPU_ReadMem(32 bytes @ 0xE0002FE0)
T1ECC 3136:558.583   ROMTbl[0][2]: E0002000, CID: B105E00D, PID: 002BB003 FPB
T1ECC 3136:558.621    -- CPU_ReadMem(32 bytes @ 0xE0000FE0)
T1ECC 3136:564.304   ROMTbl[0][3]: E0000000, CID: B105E00D, PID: 003BB001 ITM
T1ECC 3136:564.354    -- CPU_ReadMem(32 bytes @ 0xE0040FE0)
T1ECC 3136:569.624   ROMTbl[0][4]: E0040000, CID: B105900D, PID: 000BB9A1 TPIU
T1ECC 3136:569.664    -- CPU_ReadMem(32 bytes @ 0xE0041FE0)
T1ECC 3136:578.242   ROMTbl[0][5]: E0041000, CID: B105900D, PID: 000BB925 ETM
T1ECC 3136:579.150 - 274.187ms   returns 0x2BA01477
T1ECC 3136:579.188 JLINK_GetDLLVersion()  returns 66202
T1ECC 3136:579.266 JLINK_CORE_GetFound()
T1ECC 3136:579.279 - 0.016ms returns 0xE0000FF
T1ECC 3136:579.294 JLINK_GetDebugInfo(0x100 = JLINKARM_ROM_TABLE_ADDR_INDEX)
T1ECC 3136:579.303   Value=0xE00FF000
T1ECC 3136:579.314 - 0.023ms returns 0x00
T1ECC 3136:584.855 JLINK_GetDebugInfo(0x100 = JLINKARM_ROM_TABLE_ADDR_INDEX)
T1ECC 3136:584.901   Value=0xE00FF000
T1ECC 3136:584.912 - 0.060ms returns 0x00
T1ECC 3136:584.926 JLINK_GetDebugInfo(0x101 = JLINKARM_DEBUG_INFO_ETM_ADDR_INDEX)
T1ECC 3136:584.936   Value=0xE0041000
T1ECC 3136:584.947 - 0.025ms returns 0x00
T1ECC 3136:584.983   JLINK_ReadMemEx(0xE0041FD0, 0x0020 Bytes, ..., Flags = 0x02000004)
T1ECC 3136:585.015    -- CPU_ReadMem(32 bytes @ 0xE0041FD0)
T1ECC 3136:586.182   Data:  04 00 00 00 00 00 00 00 00 00 00 00 00 00 00 00 ...
T1ECC 3136:586.204 - 1.226ms returns 0x20
T1ECC 3136:586.220 JLINK_GetDebugInfo(0x102 = JLINKARM_DEBUG_INFO_MTB_ADDR_INDEX)
T1ECC 3136:586.229   Value=0x00000000
T1ECC 3136:586.238 - 0.022ms returns 0x00
T1ECC 3136:586.247 JLINK_GetDebugInfo(0x103 = JLINKARM_DEBUG_INFO_TPIU_ADDR_INDEX)
T1ECC 3136:586.255   Value=0xE0040000
T1ECC 3136:586.265 - 0.020ms returns 0x00
T1ECC 3136:586.274 JLINK_GetDebugInfo(0x104 = JLINKARM_DEBUG_INFO_ITM_ADDR_INDEX)
T1ECC 3136:586.281   Value=0xE0000000
T1ECC 3136:586.290 - 0.020ms returns 0x00
T1ECC 3136:586.300 JLINK_GetDebugInfo(0x105 = JLINKARM_DEBUG_INFO_DWT_ADDR_INDEX)
T1ECC 3136:586.307   Value=0xE0001000
T1ECC 3136:586.316 - 0.019ms returns 0x00
T1ECC 3136:586.325 JLINK_GetDebugInfo(0x106 = JLINKARM_DEBUG_INFO_FPB_ADDR_INDEX)
T1ECC 3136:586.332   Value=0xE0002000
T1ECC 3136:586.341 - 0.020ms returns 0x00
T1ECC 3136:586.351 JLINK_GetDebugInfo(0x107 = JLINKARM_DEBUG_INFO_NVIC_ADDR_INDEX)
T1ECC 3136:586.358   Value=0xE000E000
T1ECC 3136:586.367 - 0.020ms returns 0x00
T1ECC 3136:586.376 JLINK_GetDebugInfo(0x10C = JLINKARM_DEBUG_INFO_DBG_ADDR_INDEX)
T1ECC 3136:586.383   Value=0xE000EDF0
T1ECC 3136:586.392 - 0.019ms returns 0x00
T1ECC 3136:586.401 JLINK_GetDebugInfo(0x01 = Unknown)
T1ECC 3136:586.409   Value=0x00000001
T1ECC 3136:586.418 - 0.020ms returns 0x00
T1ECC 3136:586.434 JLINK_ReadMemU32(0xE000ED00, 0x0001 Items, ...)
T1ECC 3136:586.454    -- CPU_ReadMem(4 bytes @ 0xE000ED00)
T1ECC 3136:587.118   Data:  41 C2 0F 41
T1ECC 3136:587.133    - CPUID
T1ECC 3136:587.142 - 0.711ms returns 1
T1ECC 3136:587.155 JLINK_GetDebugInfo(0x10F = JLINKARM_DEBUG_INFO_HAS_CORTEX_M_SECURITY_EXT_INDEX)
T1ECC 3136:587.163   Value=0x00000000
T1ECC 3136:587.172 - 0.020ms returns 0x00
T1ECC 3136:587.189 JLINK_SetResetType(JLINKARM_CM3_RESET_TYPE_NORMAL)
T1ECC 3136:587.196 - 0.011ms returns JLINKARM_CM3_RESET_TYPE_NORMAL
T1ECC 3136:587.207 JLINK_Reset()
T1ECC 3136:587.223   CPU is running
T1ECC 3136:587.235    -- CPU_WriteMem(4 bytes @ 0xE000EDF0)
T1ECC 3136:587.953   CPU is running
T1ECC 3136:587.969    -- CPU_WriteMem(4 bytes @ 0xE000EDFC)
T1ECC 3136:593.525   Reset: Halt core after reset via DEMCR.VC_CORERESET.
T1ECC 3136:598.516   Reset: Reset device via AIRCR.SYSRESETREQ.
T1ECC 3136:598.556   CPU is running
T1ECC 3136:598.573    -- CPU_WriteMem(4 bytes @ 0xE000ED0C)
T1ECC 3136:653.014    -- CPU_ReadMem(4 bytes @ 0xE000EDF0)
T1ECC 3136:653.853    -- CPU_ReadMem(4 bytes @ 0xE000EDF0)
T1ECC 3136:654.708   CPU is running
T1ECC 3136:654.733    -- CPU_WriteMem(4 bytes @ 0xE000EDF0)
T1ECC 3136:655.525   CPU is running
T1ECC 3136:655.550    -- CPU_WriteMem(4 bytes @ 0xE000EDFC)
T1ECC 3136:661.924    -- CPU_ReadMem(4 bytes @ 0xE000EDF0)
T1ECC 3136:666.627    -- CPU_WriteMem(4 bytes @ 0xE0002000)
T1ECC 3136:667.372    -- CPU_ReadMem(4 bytes @ 0xE000EDFC)
T1ECC 3136:668.174    -- CPU_ReadMem(4 bytes @ 0xE0001000)
T1ECC 3136:669.043 - 81.850ms
T1ECC 3136:669.159 JLINK_Halt()
T1ECC 3136:669.175 - 0.021ms returns 0x00
T1ECC 3136:669.192 JLINK_ReadMemU32(0xE000EDF0, 0x0001 Items, ...)
T1ECC 3136:669.218    -- CPU_ReadMem(4 bytes @ 0xE000EDF0)
T1ECC 3136:670.068   Data:  03 00 03 00
T1ECC 3136:670.094    - DHCSR
T1ECC 3136:670.106 - 0.919ms returns 1
T1ECC 3136:670.134 JLINK_WriteU32(0xE000EDF0, 0xA05F0003)
T1ECC 3136:670.145    - DHCSR
T1ECC 3136:670.174    -- CPU_WriteMem(4 bytes @ 0xE000EDF0)
T1ECC 3136:670.934 - 0.813ms returns 0
T1ECC 3136:670.958 JLINK_WriteU32(0xE000EDFC, 0x01000000)
T1ECC 3136:670.970    - DEMCR
T1ECC 3136:670.993    -- CPU_WriteMem(4 bytes @ 0xE000EDFC)
T1ECC 3136:671.747 - 0.800ms returns 0
T1ECC 3136:695.769 JLINK_GetHWStatus(...)
T1ECC 3136:696.233 - 0.483ms returns 0x00
T1ECC 3136:712.902 JLINK_GetNumBPUnits(Type = 0xFFFFFF00)
T1ECC 3136:712.942 - 0.044ms returns 0x06
T1ECC 3136:712.956 JLINK_GetNumBPUnits(Type = 0xF0)
T1ECC 3136:712.964 - 0.012ms returns 0x2000
T1ECC 3136:712.978 JLINK_GetNumWPUnits()
T1ECC 3136:712.986 - 0.012ms returns 0x04
T1ECC 3136:727.997 JLINK_GetSpeed()
T1ECC 3136:728.029 - 0.038ms returns 0xFA0
T1ECC 3136:738.903 JLINK_ReadMemU32(0xE000E004, 0x0001 Items, ...)
T1ECC 3136:739.005    -- CPU_ReadMem(4 bytes @ 0xE000E004)
T1ECC 3136:739.822   Data:  02 00 00 00
T1ECC 3136:739.861 - 0.968ms returns 1
T1ECC 3136:739.914 JLINK_ReadMemU32(0xE000E004, 0x0001 Items, ...)
T1ECC 3136:739.937    -- CPU_ReadMem(4 bytes @ 0xE000E004)
T1ECC 3136:740.819   Data:  02 00 00 00
T1ECC 3136:740.842 - 0.933ms returns 1
T1ECC 3136:740.868 JLINK_WriteMemEx(0xE0001000, 0x001C Bytes, ..., Flags = 0x02000004)
T1ECC 3136:740.898   Data:  01 00 00 00 00 00 00 00 00 00 00 00 00 00 00 00 ...
T1ECC 3136:742.041    -- CPU_WriteMem(28 bytes @ 0xE0001000)
T1ECC 3136:743.013 - 2.166ms returns 0x1C
T1ECC 3136:743.053 JLINK_Halt()
T1ECC 3136:743.064 - 0.015ms returns 0x00
T1ECC 3136:743.082 JLINK_IsHalted()
T1ECC 3136:743.094 - 0.016ms returns TRUE
T1ECC 3136:748.686 JLINK_WriteMem(0x20000000, 0x0180 Bytes, ...)
T1ECC 3136:748.711   Data:  00 BE 0A E0 0D 78 2D 06 68 40 08 24 40 00 00 D3 ...
T1ECC 3136:750.036    -- CPU_WriteMem(384 bytes @ 0x20000000)
T1ECC 3136:755.308 - 6.653ms returns 0x180
T1ECC 3136:755.483 JLINK_WriteReg(R0, 0x08000000)
T1ECC 3136:755.510 - 0.033ms returns 0x00
T1ECC 3136:755.525 JLINK_WriteReg(R1, 0x00B71B00)
T1ECC 3136:755.536 - 0.015ms returns 0x00
T1ECC 3136:755.547 JLINK_WriteReg(R2, 0x00000001)
T1ECC 3136:755.557 - 0.014ms returns 0x00
T1ECC 3136:755.568 JLINK_WriteReg(R3, 0x00000000)
T1ECC 3136:755.578 - 0.015ms returns 0x00
T1ECC 3136:755.591 JLINK_WriteReg(R4, 0x00000000)
T1ECC 3136:755.600 - 0.014ms returns 0x00
T1ECC 3136:755.611 JLINK_WriteReg(R5, 0x00000000)
T1ECC 3136:755.621 - 0.014ms returns 0x00
T1ECC 3136:755.633 JLINK_WriteReg(R6, 0x00000000)
T1ECC 3136:755.643 - 0.014ms returns 0x00
T1ECC 3136:755.654 JLINK_WriteReg(R7, 0x00000000)
T1ECC 3136:755.664 - 0.014ms returns 0x00
T1ECC 3136:755.675 JLINK_WriteReg(R8, 0x00000000)
T1ECC 3136:755.684 - 0.013ms returns 0x00
T1ECC 3136:755.695 JLINK_WriteReg(R9, 0x2000017C)
T1ECC 3136:755.715 - 0.025ms returns 0x00
T1ECC 3136:755.731 JLINK_WriteReg(R10, 0x00000000)
T1ECC 3136:755.746 - 0.019ms returns 0x00
T1ECC 3136:755.758 JLINK_WriteReg(R11, 0x00000000)
T1ECC 3136:755.767 - 0.013ms returns 0x00
T1ECC 3136:755.779 JLINK_WriteReg(R12, 0x00000000)
T1ECC 3136:755.789 - 0.016ms returns 0x00
T1ECC 3136:755.802 JLINK_WriteReg(R13 (SP), 0x20001000)
T1ECC 3136:755.814 - 0.017ms returns 0x00
T1ECC 3136:755.826 JLINK_WriteReg(R14, 0x20000001)
T1ECC 3136:755.835 - 0.014ms returns 0x00
T1ECC 3136:755.847 JLINK_WriteReg(R15 (PC), 0x20000054)
T1ECC 3136:755.957 - 0.115ms returns 0x00
T1ECC 3136:755.969 JLINK_WriteReg(XPSR, 0x01000000)
T1ECC 3136:755.980 - 0.015ms returns 0x00
T1ECC 3136:755.992 JLINK_WriteReg(MSP, 0x20001000)
T1ECC 3136:756.001 - 0.014ms returns 0x00
T1ECC 3136:756.013 JLINK_WriteReg(PSP, 0x20001000)
T1ECC 3136:756.022 - 0.013ms returns 0x00
T1ECC 3136:756.033 JLINK_WriteReg(CFBP, 0x00000000)
T1ECC 3136:756.042 - 0.013ms returns 0x00
T1ECC 3136:756.060   JLINK_SetBPEx(Addr = 0x20000000, Type = 0xFFFFFFF2)
T1ECC 3136:756.085    -- CPU_ReadMem(2 bytes @ 0x20000000)
T1ECC 3136:756.811 - 0.766ms returns 0x00000001
T1ECC 3136:756.845 JLINK_Go()
T1ECC 3136:756.862    -- CPU_WriteMem(2 bytes @ 0x20000000)
T1ECC 3136:757.700    -- CPU_ReadMem(4 bytes @ 0xE0001000)
T1ECC 3136:758.501    -- CPU_WriteMem(4 bytes @ 0xE0002008)
T1ECC 3136:758.524    -- CPU_WriteMem(4 bytes @ 0xE000200C)
T1ECC 3136:758.538    -- CPU_WriteMem(4 bytes @ 0xE0002010)
T1ECC 3136:758.551    -- CPU_WriteMem(4 bytes @ 0xE0002014)
T1ECC 3136:758.563    -- CPU_WriteMem(4 bytes @ 0xE0002018)
T1ECC 3136:758.577    -- CPU_WriteMem(4 bytes @ 0xE000201C)
T1ECC 3136:761.230    -- CPU_WriteMem(4 bytes @ 0xE0001004)
T1ECC 3136:765.890 - 9.071ms
T1ECC 3136:765.931 JLINK_IsHalted()
T1ECC 3136:770.029    -- CPU_ReadMem(2 bytes @ 0x20000000)
T1ECC 3136:770.854 - 4.937ms returns TRUE
T1ECC 3136:770.920 JLINK_ReadReg(R15 (PC))
T1ECC 3136:770.939 - 0.024ms returns 0x20000000
T1ECC 3136:770.954 JLINK_ClrBPEx(BPHandle = 0x00000001)
T1ECC 3136:770.966 - 0.016ms returns 0x00
T1ECC 3136:770.979 JLINK_ReadReg(R0)
T1ECC 3136:770.989 - 0.014ms returns 0x00000000
T1ECC 3136:771.501 JLINK_WriteReg(R0, 0x08000000)
T1ECC 3136:771.520 - 0.025ms returns 0x00
T1ECC 3136:771.533 JLINK_WriteReg(R1, 0x00004000)
T1ECC 3136:771.547 - 0.021ms returns 0x00
T1ECC 3136:771.565 JLINK_WriteReg(R2, 0x000000FF)
T1ECC 3136:771.578 - 0.018ms returns 0x00
T1ECC 3136:771.590 JLINK_WriteReg(R3, 0x00000000)
T1ECC 3136:771.599 - 0.013ms returns 0x00
T1ECC 3136:771.610 JLINK_WriteReg(R4, 0x00000000)
T1ECC 3136:771.620 - 0.014ms returns 0x00
T1ECC 3136:771.631 JLINK_WriteReg(R5, 0x00000000)
T1ECC 3136:771.640 - 0.013ms returns 0x00
T1ECC 3136:771.651 JLINK_WriteReg(R6, 0x00000000)
T1ECC 3136:771.660 - 0.013ms returns 0x00
T1ECC 3136:771.671 JLINK_WriteReg(R7, 0x00000000)
T1ECC 3136:771.681 - 0.013ms returns 0x00
T1ECC 3136:771.691 JLINK_WriteReg(R8, 0x00000000)
T1ECC 3136:771.701 - 0.014ms returns 0x00
T1ECC 3136:771.713 JLINK_WriteReg(R9, 0x2000017C)
T1ECC 3136:771.722 - 0.013ms returns 0x00
T1ECC 3136:771.733 JLINK_WriteReg(R10, 0x00000000)
T1ECC 3136:771.742 - 0.014ms returns 0x00
T1ECC 3136:771.753 JLINK_WriteReg(R11, 0x00000000)
T1ECC 3136:771.763 - 0.014ms returns 0x00
T1ECC 3136:771.774 JLINK_WriteReg(R12, 0x00000000)
T1ECC 3136:771.783 - 0.013ms returns 0x00
T1ECC 3136:771.794 JLINK_WriteReg(R13 (SP), 0x20001000)
T1ECC 3136:771.805 - 0.015ms returns 0x00
T1ECC 3136:771.816 JLINK_WriteReg(R14, 0x20000001)
T1ECC 3136:771.825 - 0.013ms returns 0x00
T1ECC 3136:771.836 JLINK_WriteReg(R15 (PC), 0x20000020)
T1ECC 3136:771.845 - 0.014ms returns 0x00
T1ECC 3136:771.857 JLINK_WriteReg(XPSR, 0x01000000)
T1ECC 3136:771.866 - 0.013ms returns 0x00
T1ECC 3136:771.937 JLINK_WriteReg(MSP, 0x20001000)
T1ECC 3136:771.958 - 0.029ms returns 0x00
T1ECC 3136:771.980 JLINK_WriteReg(PSP, 0x20001000)
T1ECC 3136:771.994 - 0.019ms returns 0x00
T1ECC 3136:772.011 JLINK_WriteReg(CFBP, 0x00000000)
T1ECC 3136:772.022 - 0.016ms returns 0x00
T1ECC 3136:772.045   JLINK_SetBPEx(Addr = 0x20000000, Type = 0xFFFFFFF2)
T1ECC 3136:772.065 - 0.027ms returns 0x00000002
T1ECC 3136:772.087 JLINK_Go()
T1ECC 3136:772.123    -- CPU_ReadMem(4 bytes @ 0xE0001000)
T1ECC 3136:776.562 - 4.505ms
T1ECC 3136:776.615 JLINK_IsHalted()
T1ECC 3136:780.642    -- CPU_ReadMem(2 bytes @ 0x20000000)
T1ECC 3136:781.529 - 4.929ms returns TRUE
T1ECC 3136:781.565 JLINK_ReadReg(R15 (PC))
T1ECC 3136:781.581 - 0.021ms returns 0x20000000
T1ECC 3136:781.597 JLINK_ClrBPEx(BPHandle = 0x00000002)
T1ECC 3136:781.680 - 0.093ms returns 0x00
T1ECC 3136:781.705 JLINK_ReadReg(R0)
T1ECC 3136:781.716 - 0.015ms returns 0x00000001
T1ECC 3136:781.803 JLINK_WriteReg(R0, 0x08000000)
T1ECC 3136:781.819 - 0.021ms returns 0x00
T1ECC 3136:781.831 JLINK_WriteReg(R1, 0x00004000)
T1ECC 3136:781.841 - 0.014ms returns 0x00
T1ECC 3136:781.852 JLINK_WriteReg(R2, 0x000000FF)
T1ECC 3136:781.862 - 0.014ms returns 0x00
T1ECC 3136:781.873 JLINK_WriteReg(R3, 0x00000000)
T1ECC 3136:781.888 - 0.020ms returns 0x00
T1ECC 3136:781.901 JLINK_WriteReg(R4, 0x00000000)
T1ECC 3136:781.911 - 0.014ms returns 0x00
T1ECC 3136:781.923 JLINK_WriteReg(R5, 0x00000000)
T1ECC 3136:781.932 - 0.014ms returns 0x00
T1ECC 3136:781.945 JLINK_WriteReg(R6, 0x00000000)
T1ECC 3136:781.955 - 0.015ms returns 0x00
T1ECC 3136:781.968 JLINK_WriteReg(R7, 0x00000000)
T1ECC 3136:781.979 - 0.016ms returns 0x00
T1ECC 3136:781.991 JLINK_WriteReg(R8, 0x00000000)
T1ECC 3136:782.000 - 0.014ms returns 0x00
T1ECC 3136:782.012 JLINK_WriteReg(R9, 0x2000017C)
T1ECC 3136:782.022 - 0.014ms returns 0x00
T1ECC 3136:782.033 JLINK_WriteReg(R10, 0x00000000)
T1ECC 3136:782.043 - 0.014ms returns 0x00
T1ECC 3136:782.054 JLINK_WriteReg(R11, 0x00000000)
T1ECC 3136:782.063 - 0.014ms returns 0x00
T1ECC 3136:782.075 JLINK_WriteReg(R12, 0x00000000)
T1ECC 3136:782.084 - 0.014ms returns 0x00
T1ECC 3136:782.095 JLINK_WriteReg(R13 (SP), 0x20001000)
T1ECC 3136:782.105 - 0.015ms returns 0x00
T1ECC 3136:782.117 JLINK_WriteReg(R14, 0x20000001)
T1ECC 3136:782.129 - 0.019ms returns 0x00
T1ECC 3136:782.145 JLINK_WriteReg(R15 (PC), 0x200000BC)
T1ECC 3136:782.160 - 0.024ms returns 0x00
T1ECC 3136:782.178 JLINK_WriteReg(XPSR, 0x01000000)
T1ECC 3136:782.190 - 0.016ms returns 0x00
T1ECC 3136:782.202 JLINK_WriteReg(MSP, 0x20001000)
T1ECC 3136:782.212 - 0.015ms returns 0x00
T1ECC 3136:782.227 JLINK_WriteReg(PSP, 0x20001000)
T1ECC 3136:782.249 - 0.031ms returns 0x00
T1ECC 3136:782.268 JLINK_WriteReg(CFBP, 0x00000000)
T1ECC 3136:782.280 - 0.017ms returns 0x00
T1ECC 3136:782.297   JLINK_SetBPEx(Addr = 0x20000000, Type = 0xFFFFFFF2)
T1ECC 3136:782.317 - 0.026ms returns 0x00000003
T1ECC 3136:782.329 JLINK_Go()
T1ECC 3136:782.356    -- CPU_ReadMem(4 bytes @ 0xE0001000)
T1ECC 3136:787.028 - 4.717ms
T1ECC 3136:787.060 JLINK_IsHalted()
T1ECC 3136:787.700 - 0.653ms returns FALSE
T1ECC 3136:835.914 JLINK_IsHalted()
T1ECC 3136:836.635 - 0.738ms returns FALSE
T1ECC 3136:837.929 JLINK_IsHalted()
T1ECC 3136:838.810 - 0.898ms returns FALSE
T1ECC 3136:840.906 JLINK_IsHalted()
T1ECC 3136:841.801 - 0.908ms returns FALSE
T1ECC 3136:843.917 JLINK_IsHalted()
T1ECC 3136:844.842 - 0.948ms returns FALSE
T1ECC 3136:848.930 JLINK_IsHalted()
T1ECC 3136:849.967 - 1.058ms returns FALSE
T1ECC 3136:854.940 JLINK_IsHalted()
T1ECC 3136:855.802 - 0.878ms returns FALSE
T1ECC 3136:857.920 JLINK_IsHalted()
T1ECC 3136:858.622 - 0.717ms returns FALSE
T1ECC 3136:859.931 JLINK_IsHalted()
T1ECC 3136:860.761 - 0.851ms returns FALSE
T1ECC 3136:861.931 JLINK_IsHalted()
T1ECC 3136:862.672 - 0.759ms returns FALSE
T1ECC 3136:875.939 JLINK_IsHalted()
T1ECC 3136:876.818 - 0.897ms returns FALSE
T1ECC 3136:878.906 JLINK_IsHalted()
T1ECC 3136:879.846 - 0.955ms returns FALSE
T1ECC 3136:889.919 JLINK_IsHalted()
T1ECC 3136:890.626 - 0.725ms returns FALSE
T1ECC 3136:891.906 JLINK_IsHalted()
T1ECC 3136:892.800 - 0.910ms returns FALSE
T1ECC 3136:897.947 JLINK_IsHalted()
T1ECC 3136:898.803 - 0.877ms returns FALSE
T1ECC 3136:902.906 JLINK_IsHalted()
T1ECC 3136:903.802 - 0.915ms returns FALSE
T1ECC 3136:905.901 JLINK_IsHalted()
T1ECC 3136:906.593 - 0.710ms returns FALSE
T1ECC 3136:907.912 JLINK_IsHalted()
T1ECC 3136:908.706 - 0.807ms returns FALSE
T1ECC 3136:909.903 JLINK_IsHalted()
T1ECC 3136:910.703 - 0.817ms returns FALSE
T1ECC 3136:920.921 JLINK_IsHalted()
T1ECC 3136:921.754 - 0.849ms returns FALSE
T1ECC 3136:922.929 JLINK_IsHalted()
T1ECC 3136:923.613 - 0.697ms returns FALSE
T1ECC 3136:924.934 JLINK_IsHalted()
T1ECC 3136:925.824 - 0.909ms returns FALSE
T1ECC 3136:927.912 JLINK_IsHalted()
T1ECC 3136:928.816 - 0.928ms returns FALSE
T1ECC 3136:940.911 JLINK_IsHalted()
T1ECC 3136:941.624 - 0.729ms returns FALSE
T1ECC 3136:942.922 JLINK_IsHalted()
T1ECC 3136:943.702 - 0.797ms returns FALSE
T1ECC 3136:947.905 JLINK_IsHalted()
T1ECC 3136:948.716 - 0.830ms returns FALSE
T1ECC 3136:949.913 JLINK_IsHalted()
T1ECC 3136:950.683 - 0.787ms returns FALSE
T1ECC 3136:956.926 JLINK_IsHalted()
T1ECC 3136:957.818 - 0.909ms returns FALSE
T1ECC 3136:959.906 JLINK_IsHalted()
T1ECC 3136:960.568 - 0.677ms returns FALSE
T1ECC 3136:985.908 JLINK_IsHalted()
T1ECC 3136:986.673 - 0.780ms returns FALSE
T1ECC 3136:987.918 JLINK_IsHalted()
T1ECC 3136:988.837 - 0.936ms returns FALSE
T1ECC 3136:990.916 JLINK_IsHalted()
T1ECC 3136:991.805 - 0.904ms returns FALSE
T1ECC 3136:993.919 JLINK_IsHalted()
T1ECC 3136:994.872 - 1.004ms returns FALSE
T1ECC 3137:002.911 JLINK_IsHalted()
T1ECC 3137:003.712 - 0.816ms returns FALSE
T1ECC 3137:004.908 JLINK_IsHalted()
T1ECC 3137:005.633 - 0.742ms returns FALSE
T1ECC 3137:026.916 JLINK_IsHalted()
T1ECC 3137:027.804 - 0.910ms returns FALSE
T1ECC 3137:029.905 JLINK_IsHalted()
T1ECC 3137:030.936 - 1.047ms returns FALSE
T1ECC 3137:032.911 JLINK_IsHalted()
T1ECC 3137:033.794 - 0.899ms returns FALSE
T1ECC 3137:035.907 JLINK_IsHalted()
T1ECC 3137:036.585 - 0.692ms returns FALSE
T1ECC 3137:039.923 JLINK_IsHalted()
T1ECC 3137:040.671 - 0.770ms returns FALSE
T1ECC 3137:044.912 JLINK_IsHalted()
T1ECC 3137:045.675 - 0.783ms returns FALSE
T1ECC 3137:046.908 JLINK_IsHalted()
T1ECC 3137:047.629 - 0.733ms returns FALSE
T1ECC 3137:048.943 JLINK_IsHalted()
T1ECC 3137:049.713 - 0.784ms returns FALSE
T1ECC 3137:050.908 JLINK_IsHalted()
T1ECC 3137:051.634 - 0.741ms returns FALSE
T1ECC 3137:063.923 JLINK_IsHalted()
T1ECC 3137:064.713 - 0.806ms returns FALSE
T1ECC 3137:066.005 JLINK_IsHalted()
T1ECC 3137:066.864 - 0.884ms returns FALSE
T1ECC 3137:070.917 JLINK_IsHalted()
T1ECC 3137:071.798 - 0.897ms returns FALSE
T1ECC 3137:073.904 JLINK_IsHalted()
T1ECC 3137:074.586 - 0.696ms returns FALSE
T1ECC 3137:082.917 JLINK_IsHalted()
T1ECC 3137:083.709 - 0.812ms returns FALSE
T1ECC 3137:084.944 JLINK_IsHalted()
T1ECC 3137:085.909 - 1.004ms returns FALSE
T1ECC 3137:103.926 JLINK_IsHalted()
T1ECC 3137:104.708 - 0.801ms returns FALSE
T1ECC 3137:108.903 JLINK_IsHalted()
T1ECC 3137:109.716 - 0.828ms returns FALSE
T1ECC 3137:110.915 JLINK_IsHalted()
T1ECC 3137:111.645 - 0.758ms returns FALSE
T1ECC 3137:112.955 JLINK_IsHalted()
T1ECC 3137:113.804 - 0.868ms returns FALSE
T1ECC 3137:115.911 JLINK_IsHalted()
T1ECC 3137:116.814 - 0.920ms returns FALSE
T1ECC 3137:140.940 JLINK_IsHalted()
T1ECC 3137:141.822 - 0.901ms returns FALSE
T1ECC 3137:143.925 JLINK_IsHalted()
T1ECC 3137:144.827 - 0.928ms returns FALSE
T1ECC 3137:146.903 JLINK_IsHalted()
T1ECC 3137:147.815 - 0.929ms returns FALSE
T1ECC 3137:149.945 JLINK_IsHalted()
T1ECC 3137:150.806 - 0.881ms returns FALSE
T1ECC 3137:173.939 JLINK_IsHalted()
T1ECC 3137:174.713 - 0.792ms returns FALSE
T1ECC 3137:175.959 JLINK_IsHalted()
T1ECC 3137:176.811 - 0.873ms returns FALSE
T1ECC 3137:178.912 JLINK_IsHalted()
T1ECC 3137:179.629 - 0.732ms returns FALSE
T1ECC 3137:180.922 JLINK_IsHalted()
T1ECC 3137:181.821 - 0.921ms returns FALSE
T1ECC 3137:188.918 JLINK_IsHalted()
T1ECC 3137:192.689    -- CPU_ReadMem(2 bytes @ 0x20000000)
T1ECC 3137:193.402 - 4.503ms returns TRUE
T1ECC 3137:193.442 JLINK_ReadReg(R15 (PC))
T1ECC 3137:193.459 - 0.022ms returns 0x20000000
T1ECC 3137:193.475 JLINK_ClrBPEx(BPHandle = 0x00000003)
T1ECC 3137:193.486 - 0.015ms returns 0x00
T1ECC 3137:193.501 JLINK_ReadReg(R0)
T1ECC 3137:193.511 - 0.014ms returns 0x00000000
T1ECC 3137:194.474 JLINK_WriteReg(R0, 0x08004000)
T1ECC 3137:194.509 - 0.044ms returns 0x00
T1ECC 3137:194.527 JLINK_WriteReg(R1, 0x00004000)
T1ECC 3137:194.538 - 0.017ms returns 0x00
T1ECC 3137:194.552 JLINK_WriteReg(R2, 0x000000FF)
T1ECC 3137:194.563 - 0.016ms returns 0x00
T1ECC 3137:194.578 JLINK_WriteReg(R3, 0x00000000)
T1ECC 3137:194.591 - 0.018ms returns 0x00
T1ECC 3137:194.612 JLINK_WriteReg(R4, 0x00000000)
T1ECC 3137:194.627 - 0.020ms returns 0x00
T1ECC 3137:194.640 JLINK_WriteReg(R5, 0x00000000)
T1ECC 3137:194.651 - 0.015ms returns 0x00
T1ECC 3137:194.663 JLINK_WriteReg(R6, 0x00000000)
T1ECC 3137:194.673 - 0.014ms returns 0x00
T1ECC 3137:194.684 JLINK_WriteReg(R7, 0x00000000)
T1ECC 3137:194.695 - 0.015ms returns 0x00
T1ECC 3137:194.708 JLINK_WriteReg(R8, 0x00000000)
T1ECC 3137:194.719 - 0.016ms returns 0x00
T1ECC 3137:194.732 JLINK_WriteReg(R9, 0x2000017C)
T1ECC 3137:194.743 - 0.018ms returns 0x00
T1ECC 3137:194.760 JLINK_WriteReg(R10, 0x00000000)
T1ECC 3137:194.771 - 0.016ms returns 0x00
T1ECC 3137:194.785 JLINK_WriteReg(R11, 0x00000000)
T1ECC 3137:194.796 - 0.016ms returns 0x00
T1ECC 3137:194.809 JLINK_WriteReg(R12, 0x00000000)
T1ECC 3137:194.820 - 0.016ms returns 0x00
T1ECC 3137:194.834 JLINK_WriteReg(R13 (SP), 0x20001000)
T1ECC 3137:194.846 - 0.017ms returns 0x00
T1ECC 3137:194.859 JLINK_WriteReg(R14, 0x20000001)
T1ECC 3137:194.870 - 0.015ms returns 0x00
T1ECC 3137:194.886 JLINK_WriteReg(R15 (PC), 0x20000020)
T1ECC 3137:194.898 - 0.020ms returns 0x00
T1ECC 3137:194.910 JLINK_WriteReg(XPSR, 0x01000000)
T1ECC 3137:194.922 - 0.016ms returns 0x00
T1ECC 3137:194.935 JLINK_WriteReg(MSP, 0x20001000)
T1ECC 3137:194.946 - 0.016ms returns 0x00
T1ECC 3137:194.959 JLINK_WriteReg(PSP, 0x20001000)
T1ECC 3137:194.970 - 0.016ms returns 0x00
T1ECC 3137:194.984 JLINK_WriteReg(CFBP, 0x00000000)
T1ECC 3137:194.995 - 0.016ms returns 0x00
T1ECC 3137:195.010   JLINK_SetBPEx(Addr = 0x20000000, Type = 0xFFFFFFF2)
T1ECC 3137:195.026 - 0.022ms returns 0x00000004
T1ECC 3137:195.039 JLINK_Go()
T1ECC 3137:195.068    -- CPU_ReadMem(4 bytes @ 0xE0001000)
T1ECC 3137:199.570 - 4.554ms
T1ECC 3137:199.609 JLINK_IsHalted()
T1ECC 3137:203.347    -- CPU_ReadMem(2 bytes @ 0x20000000)
T1ECC 3137:204.087 - 4.490ms returns TRUE
T1ECC 3137:204.114 JLINK_ReadReg(R15 (PC))
T1ECC 3137:204.131 - 0.022ms returns 0x20000000
T1ECC 3137:204.145 JLINK_ClrBPEx(BPHandle = 0x00000004)
T1ECC 3137:204.157 - 0.016ms returns 0x00
T1ECC 3137:204.170 JLINK_ReadReg(R0)
T1ECC 3137:204.181 - 0.015ms returns 0x00000001
T1ECC 3137:204.199 JLINK_WriteReg(R0, 0x08004000)
T1ECC 3137:204.211 - 0.016ms returns 0x00
T1ECC 3137:204.223 JLINK_WriteReg(R1, 0x00004000)
T1ECC 3137:204.234 - 0.016ms returns 0x00
T1ECC 3137:204.247 JLINK_WriteReg(R2, 0x000000FF)
T1ECC 3137:204.257 - 0.015ms returns 0x00
T1ECC 3137:204.270 JLINK_WriteReg(R3, 0x00000000)
T1ECC 3137:204.281 - 0.015ms returns 0x00
T1ECC 3137:204.294 JLINK_WriteReg(R4, 0x00000000)
T1ECC 3137:204.305 - 0.015ms returns 0x00
T1ECC 3137:204.317 JLINK_WriteReg(R5, 0x00000000)
T1ECC 3137:204.327 - 0.015ms returns 0x00
T1ECC 3137:204.340 JLINK_WriteReg(R6, 0x00000000)
T1ECC 3137:204.351 - 0.015ms returns 0x00
T1ECC 3137:204.363 JLINK_WriteReg(R7, 0x00000000)
T1ECC 3137:204.374 - 0.015ms returns 0x00
T1ECC 3137:204.386 JLINK_WriteReg(R8, 0x00000000)
T1ECC 3137:204.397 - 0.016ms returns 0x00
T1ECC 3137:204.410 JLINK_WriteReg(R9, 0x2000017C)
T1ECC 3137:204.420 - 0.015ms returns 0x00
T1ECC 3137:204.433 JLINK_WriteReg(R10, 0x00000000)
T1ECC 3137:204.443 - 0.015ms returns 0x00
T1ECC 3137:204.456 JLINK_WriteReg(R11, 0x00000000)
T1ECC 3137:204.467 - 0.016ms returns 0x00
T1ECC 3137:204.480 JLINK_WriteReg(R12, 0x00000000)
T1ECC 3137:204.490 - 0.016ms returns 0x00
T1ECC 3137:204.503 JLINK_WriteReg(R13 (SP), 0x20001000)
T1ECC 3137:204.515 - 0.016ms returns 0x00
T1ECC 3137:204.527 JLINK_WriteReg(R14, 0x20000001)
T1ECC 3137:204.540 - 0.017ms returns 0x00
T1ECC 3137:204.562 JLINK_WriteReg(R15 (PC), 0x200000BC)
T1ECC 3137:204.575 - 0.018ms returns 0x00
T1ECC 3137:204.588 JLINK_WriteReg(XPSR, 0x01000000)
T1ECC 3137:204.599 - 0.016ms returns 0x00
T1ECC 3137:204.611 JLINK_WriteReg(MSP, 0x20001000)
T1ECC 3137:204.622 - 0.019ms returns 0x00
T1ECC 3137:204.638 JLINK_WriteReg(PSP, 0x20001000)
T1ECC 3137:204.649 - 0.016ms returns 0x00
T1ECC 3137:204.662 JLINK_WriteReg(CFBP, 0x00000000)
T1ECC 3137:204.673 - 0.015ms returns 0x00
T1ECC 3137:204.697   JLINK_SetBPEx(Addr = 0x20000000, Type = 0xFFFFFFF2)
T1ECC 3137:204.716 - 0.025ms returns 0x00000005
T1ECC 3137:204.729 JLINK_Go()
T1ECC 3137:204.755    -- CPU_ReadMem(4 bytes @ 0xE0001000)
T1ECC 3137:209.388 - 4.684ms
T1ECC 3137:209.428 JLINK_IsHalted()
T1ECC 3137:210.230 - 0.816ms returns FALSE
T1ECC 3137:211.906 JLINK_IsHalted()
T1ECC 3137:212.634 - 0.744ms returns FALSE
T1ECC 3137:244.811 JLINK_IsHalted()
T1ECC 3137:245.599 - 0.807ms returns FALSE
T1ECC 3137:252.902 JLINK_IsHalted()
T1ECC 3137:253.665 - 0.775ms returns FALSE
T1ECC 3137:254.920 JLINK_IsHalted()
T1ECC 3137:255.789 - 0.881ms returns FALSE
T1ECC 3137:257.900 JLINK_IsHalted()
T1ECC 3137:258.583 - 0.698ms returns FALSE
T1ECC 3137:259.905 JLINK_IsHalted()
T1ECC 3137:260.729 - 0.842ms returns FALSE
T1ECC 3137:285.923 JLINK_IsHalted()
T1ECC 3137:286.803 - 0.895ms returns FALSE
T1ECC 3137:288.902 JLINK_IsHalted()
T1ECC 3137:289.575 - 0.686ms returns FALSE
T1ECC 3137:332.908 JLINK_IsHalted()
T1ECC 3137:333.715 - 0.829ms returns FALSE
T1ECC 3137:334.911 JLINK_IsHalted()
T1ECC 3137:335.593 - 0.700ms returns FALSE
T1ECC 3137:339.920 JLINK_IsHalted()
T1ECC 3137:340.800 - 0.898ms returns FALSE
T1ECC 3137:342.901 JLINK_IsHalted()
T1ECC 3137:343.569 - 0.683ms returns FALSE
T1ECC 3137:369.924 JLINK_IsHalted()
T1ECC 3137:370.825 - 0.920ms returns FALSE
T1ECC 3137:372.919 JLINK_IsHalted()
T1ECC 3137:373.819 - 0.914ms returns FALSE
T1ECC 3137:375.916 JLINK_IsHalted()
T1ECC 3137:376.808 - 0.909ms returns FALSE
T1ECC 3137:378.940 JLINK_IsHalted()
T1ECC 3137:379.813 - 0.888ms returns FALSE
T1ECC 3137:407.907 JLINK_IsHalted()
T1ECC 3137:408.668 - 0.775ms returns FALSE
T1ECC 3137:409.900 JLINK_IsHalted()
T1ECC 3137:410.611 - 0.741ms returns FALSE
T1ECC 3137:455.936 JLINK_IsHalted()
T1ECC 3137:456.701 - 0.794ms returns FALSE
T1ECC 3137:457.910 JLINK_IsHalted()
T1ECC 3137:458.570 - 0.674ms returns FALSE
T1ECC 3137:459.906 JLINK_IsHalted()
T1ECC 3137:460.726 - 0.841ms returns FALSE
T1ECC 3137:461.905 JLINK_IsHalted()
T1ECC 3137:462.668 - 0.781ms returns FALSE
T1ECC 3137:493.927 JLINK_IsHalted()
T1ECC 3137:494.822 - 0.917ms returns FALSE
T1ECC 3137:496.921 JLINK_IsHalted()
T1ECC 3137:497.624 - 0.717ms returns FALSE
T1ECC 3137:498.908 JLINK_IsHalted()
T1ECC 3137:499.753 - 0.860ms returns FALSE
T1ECC 3137:500.911 JLINK_IsHalted()
T1ECC 3137:501.673 - 0.778ms returns FALSE
T1ECC 3137:532.934 JLINK_IsHalted()
T1ECC 3137:533.864 - 0.988ms returns FALSE
T1ECC 3137:535.914 JLINK_IsHalted()
T1ECC 3137:536.637 - 0.739ms returns FALSE
T1ECC 3137:575.913 JLINK_IsHalted()
T1ECC 3137:576.667 - 0.774ms returns FALSE
T1ECC 3137:577.924 JLINK_IsHalted()
T1ECC 3137:578.805 - 0.896ms returns FALSE
T1ECC 3137:580.904 JLINK_IsHalted()
T1ECC 3137:581.815 - 0.930ms returns FALSE
T1ECC 3137:583.907 JLINK_IsHalted()
T1ECC 3137:584.805 - 0.948ms returns FALSE
T1ECC 3137:615.929 JLINK_IsHalted()
T1ECC 3137:619.877    -- CPU_ReadMem(2 bytes @ 0x20000000)
T1ECC 3137:620.587 - 4.672ms returns TRUE
T1ECC 3137:620.654 JLINK_ReadReg(R15 (PC))
T1ECC 3137:620.671 - 0.022ms returns 0x20000000
T1ECC 3137:620.685 JLINK_ClrBPEx(BPHandle = 0x00000005)
T1ECC 3137:620.696 - 0.015ms returns 0x00
T1ECC 3137:620.709 JLINK_ReadReg(R0)
T1ECC 3137:620.719 - 0.015ms returns 0x00000000
T1ECC 3137:621.592 JLINK_WriteReg(R0, 0x00000001)
T1ECC 3137:621.620 - 0.034ms returns 0x00
T1ECC 3137:621.634 JLINK_WriteReg(R1, 0x00004000)
T1ECC 3137:621.645 - 0.016ms returns 0x00
T1ECC 3137:621.658 JLINK_WriteReg(R2, 0x000000FF)
T1ECC 3137:621.668 - 0.015ms returns 0x00
T1ECC 3137:621.680 JLINK_WriteReg(R3, 0x00000000)
T1ECC 3137:621.691 - 0.015ms returns 0x00
T1ECC 3137:621.703 JLINK_WriteReg(R4, 0x00000000)
T1ECC 3137:621.712 - 0.015ms returns 0x00
T1ECC 3137:621.725 JLINK_WriteReg(R5, 0x00000000)
T1ECC 3137:621.735 - 0.015ms returns 0x00
T1ECC 3137:621.747 JLINK_WriteReg(R6, 0x00000000)
T1ECC 3137:621.757 - 0.015ms returns 0x00
T1ECC 3137:621.769 JLINK_WriteReg(R7, 0x00000000)
T1ECC 3137:621.779 - 0.014ms returns 0x00
T1ECC 3137:621.791 JLINK_WriteReg(R8, 0x00000000)
T1ECC 3137:621.813 - 0.027ms returns 0x00
T1ECC 3137:621.825 JLINK_WriteReg(R9, 0x2000017C)
T1ECC 3137:621.835 - 0.015ms returns 0x00
T1ECC 3137:621.847 JLINK_WriteReg(R10, 0x00000000)
T1ECC 3137:621.857 - 0.014ms returns 0x00
T1ECC 3137:621.869 JLINK_WriteReg(R11, 0x00000000)
T1ECC 3137:621.911 - 0.048ms returns 0x00
T1ECC 3137:621.926 JLINK_WriteReg(R12, 0x00000000)
T1ECC 3137:621.937 - 0.016ms returns 0x00
T1ECC 3137:621.949 JLINK_WriteReg(R13 (SP), 0x20001000)
T1ECC 3137:621.961 - 0.017ms returns 0x00
T1ECC 3137:621.975 JLINK_WriteReg(R14, 0x20000001)
T1ECC 3137:621.986 - 0.017ms returns 0x00
T1ECC 3137:622.002 JLINK_WriteReg(R15 (PC), 0x20000082)
T1ECC 3137:622.021 - 0.024ms returns 0x00
T1ECC 3137:622.035 JLINK_WriteReg(XPSR, 0x01000000)
T1ECC 3137:622.047 - 0.016ms returns 0x00
T1ECC 3137:622.060 JLINK_WriteReg(MSP, 0x20001000)
T1ECC 3137:622.076 - 0.022ms returns 0x00
T1ECC 3137:622.090 JLINK_WriteReg(PSP, 0x20001000)
T1ECC 3137:622.101 - 0.016ms returns 0x00
T1ECC 3137:622.113 JLINK_WriteReg(CFBP, 0x00000000)
T1ECC 3137:622.125 - 0.016ms returns 0x00
T1ECC 3137:622.138   JLINK_SetBPEx(Addr = 0x20000000, Type = 0xFFFFFFF2)
T1ECC 3137:622.162 - 0.029ms returns 0x00000006
T1ECC 3137:622.175 JLINK_Go()
T1ECC 3137:622.203    -- CPU_ReadMem(4 bytes @ 0xE0001000)
T1ECC 3137:626.715 - 4.568ms
T1ECC 3137:626.760 JLINK_IsHalted()
T1ECC 3137:630.580    -- CPU_ReadMem(2 bytes @ 0x20000000)
T1ECC 3137:631.504 - 4.761ms returns TRUE
T1ECC 3137:631.546 JLINK_ReadReg(R15 (PC))
T1ECC 3137:631.564 - 0.024ms returns 0x20000000
T1ECC 3137:631.583 JLINK_ClrBPEx(BPHandle = 0x00000006)
T1ECC 3137:631.597 - 0.019ms returns 0x00
T1ECC 3137:631.615 JLINK_ReadReg(R0)
T1ECC 3137:631.628 - 0.018ms returns 0x00000000
T1ECC 3137:695.780 JLINK_WriteMem(0x20000000, 0x0180 Bytes, ...)
T1ECC 3137:695.807   Data:  00 BE 0A E0 0D 78 2D 06 68 40 08 24 40 00 00 D3 ...
T1ECC 3137:695.845    -- CPU_WriteMem(384 bytes @ 0x20000000)
T1ECC 3137:701.300 - 5.547ms returns 0x180
T1ECC 3137:701.415 JLINK_WriteReg(R0, 0x08000000)
T1ECC 3137:701.436 - 0.026ms returns 0x00
T1ECC 3137:701.448 JLINK_WriteReg(R1, 0x00B71B00)
T1ECC 3137:701.458 - 0.014ms returns 0x00
T1ECC 3137:701.469 JLINK_WriteReg(R2, 0x00000002)
T1ECC 3137:701.478 - 0.014ms returns 0x00
T1ECC 3137:701.490 JLINK_WriteReg(R3, 0x00000000)
T1ECC 3137:701.499 - 0.013ms returns 0x00
T1ECC 3137:701.510 JLINK_WriteReg(R4, 0x00000000)
T1ECC 3137:701.519 - 0.013ms returns 0x00
T1ECC 3137:701.530 JLINK_WriteReg(R5, 0x00000000)
T1ECC 3137:701.539 - 0.013ms returns 0x00
T1ECC 3137:701.550 JLINK_WriteReg(R6, 0x00000000)
T1ECC 3137:701.560 - 0.014ms returns 0x00
T1ECC 3137:701.571 JLINK_WriteReg(R7, 0x00000000)
T1ECC 3137:701.580 - 0.013ms returns 0x00
T1ECC 3137:701.591 JLINK_WriteReg(R8, 0x00000000)
T1ECC 3137:701.600 - 0.014ms returns 0x00
T1ECC 3137:701.612 JLINK_WriteReg(R9, 0x2000017C)
T1ECC 3137:701.621 - 0.013ms returns 0x00
T1ECC 3137:701.632 JLINK_WriteReg(R10, 0x00000000)
T1ECC 3137:701.641 - 0.013ms returns 0x00
T1ECC 3137:701.652 JLINK_WriteReg(R11, 0x00000000)
T1ECC 3137:701.662 - 0.014ms returns 0x00
T1ECC 3137:701.674 JLINK_WriteReg(R12, 0x00000000)
T1ECC 3137:701.682 - 0.013ms returns 0x00
T1ECC 3137:701.693 JLINK_WriteReg(R13 (SP), 0x20001000)
T1ECC 3137:701.705 - 0.016ms returns 0x00
T1ECC 3137:701.716 JLINK_WriteReg(R14, 0x20000001)
T1ECC 3137:701.726 - 0.014ms returns 0x00
T1ECC 3137:701.738 JLINK_WriteReg(R15 (PC), 0x20000054)
T1ECC 3137:701.747 - 0.013ms returns 0x00
T1ECC 3137:701.758 JLINK_WriteReg(XPSR, 0x01000000)
T1ECC 3137:701.768 - 0.013ms returns 0x00
T1ECC 3137:701.779 JLINK_WriteReg(MSP, 0x20001000)
T1ECC 3137:701.788 - 0.014ms returns 0x00
T1ECC 3137:701.800 JLINK_WriteReg(PSP, 0x20001000)
T1ECC 3137:701.809 - 0.014ms returns 0x00
T1ECC 3137:701.821 JLINK_WriteReg(CFBP, 0x00000000)
T1ECC 3137:701.830 - 0.013ms returns 0x00
T1ECC 3137:701.842   JLINK_SetBPEx(Addr = 0x20000000, Type = 0xFFFFFFF2)
T1ECC 3137:701.865    -- CPU_ReadMem(2 bytes @ 0x20000000)
T1ECC 3137:702.761 - 0.934ms returns 0x00000007
T1ECC 3137:702.788 JLINK_Go()
T1ECC 3137:702.804    -- CPU_WriteMem(2 bytes @ 0x20000000)
T1ECC 3137:703.600    -- CPU_ReadMem(4 bytes @ 0xE0001000)
T1ECC 3137:707.971 - 5.208ms
T1ECC 3137:708.017 JLINK_IsHalted()
T1ECC 3137:711.798    -- CPU_ReadMem(2 bytes @ 0x20000000)
T1ECC 3137:712.538 - 4.536ms returns TRUE
T1ECC 3137:712.577 JLINK_ReadReg(R15 (PC))
T1ECC 3137:712.593 - 0.022ms returns 0x20000000
T1ECC 3137:712.611 JLINK_ClrBPEx(BPHandle = 0x00000007)
T1ECC 3137:712.622 - 0.016ms returns 0x00
T1ECC 3137:712.639 JLINK_ReadReg(R0)
T1ECC 3137:712.649 - 0.015ms returns 0x00000000
T1ECC 3137:713.218 JLINK_WriteMem(0x20000180, 0x0280 Bytes, ...)
T1ECC 3137:713.248   Data:  F8 40 01 20 29 03 00 08 1D 08 00 08 C7 07 00 08 ...
T1ECC 3137:713.290    -- CPU_WriteMem(640 bytes @ 0x20000180)
T1ECC 3137:721.470 - 8.287ms returns 0x280
T1ECC 3137:721.525 JLINK_WriteMem(0x20000400, 0x0180 Bytes, ...)
T1ECC 3137:721.538   Data:  11 88 70 47 00 00 00 00 08 48 00 68 00 68 80 F3 ...
T1ECC 3137:721.575    -- CPU_WriteMem(384 bytes @ 0x20000400)
T1ECC 3137:726.979 - 5.478ms returns 0x180
T1ECC 3137:727.026 JLINK_WriteReg(R0, 0x08000000)
T1ECC 3137:727.055 - 0.036ms returns 0x00
T1ECC 3137:727.069 JLINK_WriteReg(R1, 0x00000400)
T1ECC 3137:727.081 - 0.016ms returns 0x00
T1ECC 3137:727.094 JLINK_WriteReg(R2, 0x20000180)
T1ECC 3137:727.104 - 0.015ms returns 0x00
T1ECC 3137:727.116 JLINK_WriteReg(R3, 0x00000000)
T1ECC 3137:727.126 - 0.015ms returns 0x00
T1ECC 3137:727.139 JLINK_WriteReg(R4, 0x00000000)
T1ECC 3137:727.149 - 0.015ms returns 0x00
T1ECC 3137:727.162 JLINK_WriteReg(R5, 0x00000000)
T1ECC 3137:727.172 - 0.015ms returns 0x00
T1ECC 3137:727.184 JLINK_WriteReg(R6, 0x00000000)
T1ECC 3137:727.196 - 0.017ms returns 0x00
T1ECC 3137:727.210 JLINK_WriteReg(R7, 0x00000000)
T1ECC 3137:727.222 - 0.019ms returns 0x00
T1ECC 3137:727.237 JLINK_WriteReg(R8, 0x00000000)
T1ECC 3137:727.247 - 0.015ms returns 0x00
T1ECC 3137:727.260 JLINK_WriteReg(R9, 0x2000017C)
T1ECC 3137:727.270 - 0.015ms returns 0x00
T1ECC 3137:727.282 JLINK_WriteReg(R10, 0x00000000)
T1ECC 3137:727.293 - 0.015ms returns 0x00
T1ECC 3137:727.305 JLINK_WriteReg(R11, 0x00000000)
T1ECC 3137:727.316 - 0.015ms returns 0x00
T1ECC 3137:727.328 JLINK_WriteReg(R12, 0x00000000)
T1ECC 3137:727.338 - 0.016ms returns 0x00
T1ECC 3137:727.352 JLINK_WriteReg(R13 (SP), 0x20001000)
T1ECC 3137:727.363 - 0.016ms returns 0x00
T1ECC 3137:727.375 JLINK_WriteReg(R14, 0x20000001)
T1ECC 3137:727.386 - 0.015ms returns 0x00
T1ECC 3137:727.398 JLINK_WriteReg(R15 (PC), 0x20000108)
T1ECC 3137:727.408 - 0.015ms returns 0x00
T1ECC 3137:727.421 JLINK_WriteReg(XPSR, 0x01000000)
T1ECC 3137:727.431 - 0.015ms returns 0x00
T1ECC 3137:727.443 JLINK_WriteReg(MSP, 0x20001000)
T1ECC 3137:727.453 - 0.015ms returns 0x00
T1ECC 3137:727.466 JLINK_WriteReg(PSP, 0x20001000)
T1ECC 3137:727.477 - 0.015ms returns 0x00
T1ECC 3137:727.489 JLINK_WriteReg(CFBP, 0x00000000)
T1ECC 3137:727.500 - 0.015ms returns 0x00
T1ECC 3137:727.513   JLINK_SetBPEx(Addr = 0x20000000, Type = 0xFFFFFFF2)
T1ECC 3137:727.529 - 0.022ms returns 0x00000008
T1ECC 3137:727.543 JLINK_Go()
T1ECC 3137:727.566    -- CPU_ReadMem(4 bytes @ 0xE0001000)
T1ECC 3137:732.079 - 4.560ms
T1ECC 3137:732.120 JLINK_IsHalted()
T1ECC 3137:733.236 - 1.135ms returns FALSE
T1ECC 3137:741.903 JLINK_IsHalted()
T1ECC 3137:745.869    -- CPU_ReadMem(2 bytes @ 0x20000000)
T1ECC 3137:746.589 - 4.704ms returns TRUE
T1ECC 3137:746.628 JLINK_ReadReg(R15 (PC))
T1ECC 3137:746.655 - 0.035ms returns 0x20000000
T1ECC 3137:746.672 JLINK_ClrBPEx(BPHandle = 0x00000008)
T1ECC 3137:746.686 - 0.018ms returns 0x00
T1ECC 3137:746.700 JLINK_ReadReg(R0)
T1ECC 3137:746.712 - 0.017ms returns 0x00000000
T1ECC 3137:747.888 JLINK_WriteMem(0x20000180, 0x0280 Bytes, ...)
T1ECC 3137:747.922   Data:  00 F0 5F B8 4F F0 00 02 00 B5 13 46 94 46 96 46 ...
T1ECC 3137:747.957    -- CPU_WriteMem(640 bytes @ 0x20000180)
T1ECC 3137:756.139 - 8.268ms returns 0x280
T1ECC 3137:756.171 JLINK_WriteMem(0x20000400, 0x0180 Bytes, ...)
T1ECC 3137:756.192   Data:  56 1E 06 EB 86 06 05 FA 06 F1 08 43 60 63 22 E0 ...
T1ECC 3137:756.226    -- CPU_WriteMem(384 bytes @ 0x20000400)
T1ECC 3137:761.507 - 5.351ms returns 0x180
T1ECC 3137:761.541 JLINK_WriteReg(R0, 0x08000400)
T1ECC 3137:761.557 - 0.021ms returns 0x00
T1ECC 3137:761.568 JLINK_WriteReg(R1, 0x00000400)
T1ECC 3137:761.578 - 0.013ms returns 0x00
T1ECC 3137:761.589 JLINK_WriteReg(R2, 0x20000180)
T1ECC 3137:761.598 - 0.013ms returns 0x00
T1ECC 3137:761.609 JLINK_WriteReg(R3, 0x00000000)
T1ECC 3137:761.618 - 0.013ms returns 0x00
T1ECC 3137:761.632 JLINK_WriteReg(R4, 0x00000000)
T1ECC 3137:761.646 - 0.018ms returns 0x00
T1ECC 3137:761.658 JLINK_WriteReg(R5, 0x00000000)
T1ECC 3137:761.668 - 0.014ms returns 0x00
T1ECC 3137:761.679 JLINK_WriteReg(R6, 0x00000000)
T1ECC 3137:761.688 - 0.013ms returns 0x00
T1ECC 3137:761.698 JLINK_WriteReg(R7, 0x00000000)
T1ECC 3137:761.708 - 0.014ms returns 0x00
T1ECC 3137:761.719 JLINK_WriteReg(R8, 0x00000000)
T1ECC 3137:761.729 - 0.014ms returns 0x00
T1ECC 3137:761.741 JLINK_WriteReg(R9, 0x2000017C)
T1ECC 3137:761.750 - 0.014ms returns 0x00
T1ECC 3137:761.761 JLINK_WriteReg(R10, 0x00000000)
T1ECC 3137:761.771 - 0.013ms returns 0x00
T1ECC 3137:761.782 JLINK_WriteReg(R11, 0x00000000)
T1ECC 3137:761.791 - 0.013ms returns 0x00
T1ECC 3137:761.801 JLINK_WriteReg(R12, 0x00000000)
T1ECC 3137:761.810 - 0.013ms returns 0x00
T1ECC 3137:761.821 JLINK_WriteReg(R13 (SP), 0x20001000)
T1ECC 3137:761.831 - 0.014ms returns 0x00
T1ECC 3137:761.842 JLINK_WriteReg(R14, 0x20000001)
T1ECC 3137:761.852 - 0.013ms returns 0x00
T1ECC 3137:761.863 JLINK_WriteReg(R15 (PC), 0x20000108)
T1ECC 3137:761.896 - 0.039ms returns 0x00
T1ECC 3137:761.909 JLINK_WriteReg(XPSR, 0x01000000)
T1ECC 3137:761.918 - 0.014ms returns 0x00
T1ECC 3137:761.931 JLINK_WriteReg(MSP, 0x20001000)
T1ECC 3137:761.941 - 0.014ms returns 0x00
T1ECC 3137:761.951 JLINK_WriteReg(PSP, 0x20001000)
T1ECC 3137:761.959 - 0.012ms returns 0x00
T1ECC 3137:761.969 JLINK_WriteReg(CFBP, 0x00000000)
T1ECC 3137:761.978 - 0.013ms returns 0x00
T1ECC 3137:761.990   JLINK_SetBPEx(Addr = 0x20000000, Type = 0xFFFFFFF2)
T1ECC 3137:762.003 - 0.018ms returns 0x00000009
T1ECC 3137:762.014 JLINK_Go()
T1ECC 3137:762.036    -- CPU_ReadMem(4 bytes @ 0xE0001000)
T1ECC 3137:766.576 - 4.580ms
T1ECC 3137:766.611 JLINK_IsHalted()
T1ECC 3137:767.224 - 0.625ms returns FALSE
T1ECC 3137:770.927 JLINK_IsHalted()
T1ECC 3137:774.458    -- CPU_ReadMem(2 bytes @ 0x20000000)
T1ECC 3137:775.224 - 4.314ms returns TRUE
T1ECC 3137:775.257 JLINK_ReadReg(R15 (PC))
T1ECC 3137:775.275 - 0.025ms returns 0x20000000
T1ECC 3137:775.291 JLINK_ClrBPEx(BPHandle = 0x00000009)
T1ECC 3137:775.303 - 0.016ms returns 0x00
T1ECC 3137:775.314 JLINK_ReadReg(R0)
T1ECC 3137:775.324 - 0.013ms returns 0x00000000
T1ECC 3137:776.193 JLINK_WriteMem(0x20000180, 0x0280 Bytes, ...)
T1ECC 3137:776.213   Data:  73 FF 01 20 00 90 69 46 02 48 FF F7 6D FF 1C BD ...
T1ECC 3137:776.239    -- CPU_WriteMem(640 bytes @ 0x20000180)
T1ECC 3137:784.331 - 8.155ms returns 0x280
T1ECC 3137:784.361 JLINK_WriteMem(0x20000400, 0x0180 Bytes, ...)
T1ECC 3137:784.370   Data:  BD E8 FF 9F 2D E9 F0 41 04 46 0F 46 15 46 00 26 ...
T1ECC 3137:784.395    -- CPU_WriteMem(384 bytes @ 0x20000400)
T1ECC 3137:789.716 - 5.411ms returns 0x180
T1ECC 3137:789.792 JLINK_WriteReg(R0, 0x08000800)
T1ECC 3137:789.808 - 0.021ms returns 0x00
T1ECC 3137:789.819 JLINK_WriteReg(R1, 0x00000400)
T1ECC 3137:789.829 - 0.013ms returns 0x00
T1ECC 3137:789.839 JLINK_WriteReg(R2, 0x20000180)
T1ECC 3137:789.848 - 0.013ms returns 0x00
T1ECC 3137:789.858 JLINK_WriteReg(R3, 0x00000000)
T1ECC 3137:789.866 - 0.015ms returns 0x00
T1ECC 3137:789.884 JLINK_WriteReg(R4, 0x00000000)
T1ECC 3137:789.892 - 0.012ms returns 0x00
T1ECC 3137:789.903 JLINK_WriteReg(R5, 0x00000000)
T1ECC 3137:789.911 - 0.014ms returns 0x00
T1ECC 3137:789.926 JLINK_WriteReg(R6, 0x00000000)
T1ECC 3137:789.935 - 0.013ms returns 0x00
T1ECC 3137:789.945 JLINK_WriteReg(R7, 0x00000000)
T1ECC 3137:789.957 - 0.022ms returns 0x00
T1ECC 3137:789.978 JLINK_WriteReg(R8, 0x00000000)
T1ECC 3137:789.988 - 0.013ms returns 0x00
T1ECC 3137:789.998 JLINK_WriteReg(R9, 0x2000017C)
T1ECC 3137:790.007 - 0.012ms returns 0x00
T1ECC 3137:790.020 JLINK_WriteReg(R10, 0x00000000)
T1ECC 3137:790.030 - 0.016ms returns 0x00
T1ECC 3137:790.049 JLINK_WriteReg(R11, 0x00000000)
T1ECC 3137:790.062 - 0.017ms returns 0x00
T1ECC 3137:790.073 JLINK_WriteReg(R12, 0x00000000)
T1ECC 3137:790.082 - 0.013ms returns 0x00
T1ECC 3137:790.093 JLINK_WriteReg(R13 (SP), 0x20001000)
T1ECC 3137:790.108 - 0.023ms returns 0x00
T1ECC 3137:790.124 JLINK_WriteReg(R14, 0x20000001)
T1ECC 3137:790.139 - 0.019ms returns 0x00
T1ECC 3137:790.149 JLINK_WriteReg(R15 (PC), 0x20000108)
T1ECC 3137:790.157 - 0.012ms returns 0x00
T1ECC 3137:790.166 JLINK_WriteReg(XPSR, 0x01000000)
T1ECC 3137:790.177 - 0.015ms returns 0x00
T1ECC 3137:790.188 JLINK_WriteReg(MSP, 0x20001000)
T1ECC 3137:790.196 - 0.012ms returns 0x00
T1ECC 3137:790.206 JLINK_WriteReg(PSP, 0x20001000)
T1ECC 3137:790.214 - 0.012ms returns 0x00
T1ECC 3137:790.224 JLINK_WriteReg(CFBP, 0x00000000)
T1ECC 3137:790.232 - 0.012ms returns 0x00
T1ECC 3137:790.243   JLINK_SetBPEx(Addr = 0x20000000, Type = 0xFFFFFFF2)
T1ECC 3137:790.256 - 0.018ms returns 0x0000000A
T1ECC 3137:790.266 JLINK_Go()
T1ECC 3137:790.286    -- CPU_ReadMem(4 bytes @ 0xE0001000)
T1ECC 3137:794.765 - 4.526ms
T1ECC 3137:794.811 JLINK_IsHalted()
T1ECC 3137:795.532 - 0.739ms returns FALSE
T1ECC 3137:804.906 JLINK_IsHalted()
T1ECC 3137:808.790    -- CPU_ReadMem(2 bytes @ 0x20000000)
T1ECC 3137:809.506 - 4.616ms returns TRUE
T1ECC 3137:809.535 JLINK_ReadReg(R15 (PC))
T1ECC 3137:809.550 - 0.019ms returns 0x20000000
T1ECC 3137:809.560 JLINK_ClrBPEx(BPHandle = 0x0000000A)
T1ECC 3137:809.568 - 0.012ms returns 0x00
T1ECC 3137:809.579 JLINK_ReadReg(R0)
T1ECC 3137:809.588 - 0.012ms returns 0x00000000
T1ECC 3137:810.443 JLINK_WriteMem(0x20000180, 0x0280 Bytes, ...)
T1ECC 3137:810.478   Data:  89 0A 0B 4F 7A 5C 47 68 D7 40 87 60 05 4F 3F 68 ...
T1ECC 3137:810.525    -- CPU_WriteMem(640 bytes @ 0x20000180)
T1ECC 3137:818.605 - 8.186ms returns 0x280
T1ECC 3137:818.645 JLINK_WriteMem(0x20000400, 0x0180 Bytes, ...)
T1ECC 3137:818.656   Data:  00 88 00 F4 00 40 C8 B9 17 48 00 88 00 F4 80 40 ...
T1ECC 3137:818.685    -- CPU_WriteMem(384 bytes @ 0x20000400)
T1ECC 3137:823.981 - 5.354ms returns 0x180
T1ECC 3137:824.067 JLINK_WriteReg(R0, 0x08000C00)
T1ECC 3137:824.086 - 0.024ms returns 0x00
T1ECC 3137:824.098 JLINK_WriteReg(R1, 0x00000400)
T1ECC 3137:824.107 - 0.013ms returns 0x00
T1ECC 3137:824.118 JLINK_WriteReg(R2, 0x20000180)
T1ECC 3137:824.127 - 0.017ms returns 0x00
T1ECC 3137:824.142 JLINK_WriteReg(R3, 0x00000000)
T1ECC 3137:824.152 - 0.013ms returns 0x00
T1ECC 3137:824.163 JLINK_WriteReg(R4, 0x00000000)
T1ECC 3137:824.172 - 0.014ms returns 0x00
T1ECC 3137:824.184 JLINK_WriteReg(R5, 0x00000000)
T1ECC 3137:824.196 - 0.016ms returns 0x00
T1ECC 3137:824.207 JLINK_WriteReg(R6, 0x00000000)
T1ECC 3137:824.221 - 0.018ms returns 0x00
T1ECC 3137:824.235 JLINK_WriteReg(R7, 0x00000000)
T1ECC 3137:824.244 - 0.013ms returns 0x00
T1ECC 3137:824.254 JLINK_WriteReg(R8, 0x00000000)
T1ECC 3137:824.263 - 0.013ms returns 0x00
T1ECC 3137:824.275 JLINK_WriteReg(R9, 0x2000017C)
T1ECC 3137:824.284 - 0.013ms returns 0x00
T1ECC 3137:824.295 JLINK_WriteReg(R10, 0x00000000)
T1ECC 3137:824.304 - 0.013ms returns 0x00
T1ECC 3137:824.315 JLINK_WriteReg(R11, 0x00000000)
T1ECC 3137:824.325 - 0.013ms returns 0x00
T1ECC 3137:824.336 JLINK_WriteReg(R12, 0x00000000)
T1ECC 3137:824.345 - 0.013ms returns 0x00
T1ECC 3137:824.355 JLINK_WriteReg(R13 (SP), 0x20001000)
T1ECC 3137:824.365 - 0.014ms returns 0x00
T1ECC 3137:824.376 JLINK_WriteReg(R14, 0x20000001)
T1ECC 3137:824.387 - 0.018ms returns 0x00
T1ECC 3137:824.404 JLINK_WriteReg(R15 (PC), 0x20000108)
T1ECC 3137:824.421 - 0.022ms returns 0x00
T1ECC 3137:824.436 JLINK_WriteReg(XPSR, 0x01000000)
T1ECC 3137:824.446 - 0.015ms returns 0x00
T1ECC 3137:824.460 JLINK_WriteReg(MSP, 0x20001000)
T1ECC 3137:824.479 - 0.025ms returns 0x00
T1ECC 3137:824.493 JLINK_WriteReg(PSP, 0x20001000)
T1ECC 3137:824.503 - 0.013ms returns 0x00
T1ECC 3137:824.513 JLINK_WriteReg(CFBP, 0x00000000)
T1ECC 3137:824.523 - 0.013ms returns 0x00
T1ECC 3137:824.535   JLINK_SetBPEx(Addr = 0x20000000, Type = 0xFFFFFFF2)
T1ECC 3137:824.549 - 0.019ms returns 0x0000000B
T1ECC 3137:824.560 JLINK_Go()
T1ECC 3137:824.583    -- CPU_ReadMem(4 bytes @ 0xE0001000)
T1ECC 3137:829.100 - 4.559ms
T1ECC 3137:829.133 JLINK_IsHalted()
T1ECC 3137:829.977 - 0.863ms returns FALSE
T1ECC 3137:833.916 JLINK_IsHalted()
T1ECC 3137:837.607    -- CPU_ReadMem(2 bytes @ 0x20000000)
T1ECC 3137:838.391 - 4.491ms returns TRUE
T1ECC 3137:838.420 JLINK_ReadReg(R15 (PC))
T1ECC 3137:838.435 - 0.019ms returns 0x20000000
T1ECC 3137:838.446 JLINK_ClrBPEx(BPHandle = 0x0000000B)
T1ECC 3137:838.455 - 0.013ms returns 0x00
T1ECC 3137:838.467 JLINK_ReadReg(R0)
T1ECC 3137:838.476 - 0.013ms returns 0x00000000
T1ECC 3137:839.415 JLINK_WriteMem(0x20000180, 0x0280 Bytes, ...)
T1ECC 3137:839.440   Data:  0C 90 01 E0 DD F8 08 90 A8 89 00 F4 00 40 40 B1 ...
T1ECC 3137:839.468    -- CPU_WriteMem(640 bytes @ 0x20000180)
T1ECC 3137:847.683 - 8.289ms returns 0x280
T1ECC 3137:847.719 JLINK_WriteMem(0x20000400, 0x0180 Bytes, ...)
T1ECC 3137:847.728   Data:  00 78 14 28 02 DB 00 20 01 49 48 72 10 BD 00 00 ...
T1ECC 3137:847.754    -- CPU_WriteMem(384 bytes @ 0x20000400)
T1ECC 3137:853.026 - 5.324ms returns 0x180
T1ECC 3137:853.142 JLINK_WriteReg(R0, 0x08001000)
T1ECC 3137:853.162 - 0.025ms returns 0x00
T1ECC 3137:853.173 JLINK_WriteReg(R1, 0x00000400)
T1ECC 3137:853.183 - 0.013ms returns 0x00
T1ECC 3137:853.194 JLINK_WriteReg(R2, 0x20000180)
T1ECC 3137:853.203 - 0.013ms returns 0x00
T1ECC 3137:853.214 JLINK_WriteReg(R3, 0x00000000)
T1ECC 3137:853.223 - 0.013ms returns 0x00
